Freq.	V(vout3)/(V(vp)-V(vm))
1.00000000000000e-002	(-4.11838015619366e+001dB,-5.59733635143613e-001°)
1.02329299228075e-002	(-4.07837855425980e+001dB,-5.72769990801834e-001°)
1.04712854805090e-002	(-4.03837687683898e+001dB,-5.86110176680783e-001°)
1.07151930523761e-002	(-3.99837512037328e+001dB,-5.99761275935969e-001°)
1.09647819614318e-002	(-3.95837328113945e+001dB,-6.13730537289531e-001°)
1.12201845430196e-002	(-3.91837135523725e+001dB,-6.28025378924647e-001°)
1.14815362149688e-002	(-3.87836933858363e+001dB,-6.42653392473720e-001°)
1.17489755493953e-002	(-3.83836722690220e+001dB,-6.57622347102362e-001°)
1.20226443461741e-002	(-3.79836501571684e+001dB,-6.72940193691832e-001°)
1.23026877081238e-002	(-3.75836270033910e+001dB,-6.88615069122049e-001°)
1.25892541179417e-002	(-3.71836027586898e+001dB,-7.04655300658310e-001°)
1.28824955169313e-002	(-3.67835773714943e+001dB,-7.21069410444217e-001°)
1.31825673855641e-002	(-3.63835507881513e+001dB,-7.37866120102939e-001°)
1.34896288259165e-002	(-3.59835229521409e+001dB,-7.55054355450987e-001°)
1.38038426460288e-002	(-3.55834938045392e+001dB,-7.72643251325928e-001°)
1.41253754462275e-002	(-3.51834632835567e+001dB,-7.90642156532052e-001°)
1.44543977074593e-002	(-3.47834313245017e+001dB,-8.09060638906911e-001°)
1.47910838816821e-002	(-3.43833978596330e+001dB,-8.27908490511429e-001°)
1.51356124843621e-002	(-3.39833628180176e+001dB,-8.47195732947964e-001°)
1.54881661891248e-002	(-3.35833261253804e+001dB,-8.66932622808117e-001°)
1.58489319246111e-002	(-3.31832877040511e+001dB,-8.87129657255793e-001°)
1.62181009735893e-002	(-3.27832474724218e+001dB,-9.07797579747508e-001°)
1.65958690743756e-002	(-3.23832053454009e+001dB,-9.28947385894445e-001°)
1.69824365246174e-002	(-3.19831612335461e+001dB,-9.50590329470345e-001°)
1.73780082874937e-002	(-3.15831150434634e+001dB,-9.72737928568590e-001°)
1.77827941003892e-002	(-3.11830666772795e+001dB,-9.95401971913431e-001°)
1.81970085860998e-002	(-3.07830160325127e+001dB,-1.01859452532912e+000°)
1.86208713666287e-002	(-3.03829630019470e+001dB,-1.04232793837151e+000°)
1.90546071796325e-002	(-2.99829074731367e+001dB,-1.06661485112714e+000°)
1.94984459975804e-002	(-2.95828493283564e+001dB,-1.09146820118417e+000°)
1.99526231496888e-002	(-2.91827884445142e+001dB,-1.11690123078002e+000°)
2.04173794466953e-002	(-2.87827246926450e+001dB,-1.14292749413185e+000°)
2.08929613085404e-002	(-2.83826579378000e+001dB,-1.16956086495401e+000°)
2.13796208950223e-002	(-2.79825880384991e+001dB,-1.19681554416863e+000°)
2.18776162394955e-002	(-2.75825148466190e+001dB,-1.22470606781520e+000°)
2.23872113856834e-002	(-2.71824382072465e+001dB,-1.25324731516516e+000°)
2.29086765276777e-002	(-2.67823579581788e+001dB,-1.28245451704746e+000°)
2.34422881531992e-002	(-2.63822739293268e+001dB,-1.31234326439175e+000°)
2.39883291901949e-002	(-2.59821859429545e+001dB,-1.34292951699603e+000°)
2.45470891568503e-002	(-2.55820938127046e+001dB,-1.37422961252560e+000°)
2.51188643150958e-002	(-2.51819973434657e+001dB,-1.40626027575129e+000°)
2.57039578276886e-002	(-2.47818963312243e+001dB,-1.43903862803360e+000°)
2.63026799189538e-002	(-2.43817905621079e+001dB,-1.47258219706125e+000°)
2.69153480392691e-002	(-2.39816798121985e+001dB,-1.50690892685323e+000°)
2.75422870333816e-002	(-2.35815638473288e+001dB,-1.54203718803116e+000°)
2.81838293126445e-002	(-2.31814424220641e+001dB,-1.57798578837326e+000°)
2.88403150312660e-002	(-2.27813152794434e+001dB,-1.61477398365778e+000°)
2.95120922666638e-002	(-2.23811821508068e+001dB,-1.65242148880616e+000°)
3.01995172040201e-002	(-2.19810427542313e+001dB,-1.69094848933738e+000°)
3.09029543251359e-002	(-2.15808967953132e+001dB,-1.73037565314232e+000°)
3.16227766016838e-002	(-2.11807439650889e+001dB,-1.77072414259176e+000°)
3.23593656929628e-002	(-2.07805839408360e+001dB,-1.81201562698834e+000°)
3.31131121482591e-002	(-2.03804163839590e+001dB,-1.85427229537572e+000°)
3.38844156139202e-002	(-1.99802409409018e+001dB,-1.89751686971767e+000°)
3.46736850452531e-002	(-1.95800572402467e+001dB,-1.94177261846107e+000°)
3.54813389233575e-002	(-1.91798648944594e+001dB,-1.98706337049795e+000°)
3.63078054770101e-002	(-1.87796634970134e+001dB,-2.03341352954004e+000°)
3.71535229097172e-002	(-1.83794526227057e+001dB,-2.08084808892344e+000°)
3.80189396320561e-002	(-1.79792318264185e+001dB,-2.12939264685995e+000°)
3.89045144994280e-002	(-1.75790006420089e+001dB,-2.17907342215179e+000°)
3.98107170553497e-002	(-1.71787585815219e+001dB,-2.22991727038897e+000°)
4.07380277804112e-002	(-1.67785051344447e+001dB,-2.28195170065017e+000°)
4.16869383470335e-002	(-1.63782397660159e+001dB,-2.33520489272474e+000°)
4.26579518801592e-002	(-1.59779619168439e+001dB,-2.38970571488067e+000°)
4.36515832240165e-002	(-1.55776710011096e+001dB,-2.44548374220052e+000°)
4.46683592150962e-002	(-1.51773664057184e+001dB,-2.50256927550855e+000°)
4.57088189614874e-002	(-1.47770474889563e+001dB,-2.56099336091625e+000°)
4.67735141287197e-002	(-1.43767135792262e+001dB,-2.62078781001241e+000°)
4.78630092322637e-002	(-1.39763639733373e+001dB,-2.68198522072745e+000°)
4.89778819368445e-002	(-1.35759979355773e+001dB,-2.74461899890046e+000°)
5.01187233627271e-002	(-1.31756146958528e+001dB,-2.80872338058293e+000°)
5.12861383991364e-002	(-1.27752134482773e+001dB,-2.87433345511279e+000°)
5.24807460249771e-002	(-1.23747933491776e+001dB,-2.94148518899311e+000°)
5.37031796370252e-002	(-1.19743535159862e+001dB,-3.01021545061619e+000°)
5.49540873857623e-002	(-1.15738930248209e+001dB,-3.08056203587140e+000°)
5.62341325190348e-002	(-1.11734109090417e+001dB,-3.15256369467994e+000°)
5.75439937337156e-002	(-1.07729061567620e+001dB,-3.22626015850394e+000°)
5.88843655355588e-002	(-1.03723777099520e+001dB,-3.30169216887425e+000°)
6.02559586074356e-002	(-9.97182446042703e+000dB,-3.37890150699326e+000°)
6.16595001861481e-002	(-9.57124524929872e+000dB,-3.45793102446190e+000°)
6.30957344480192e-002	(-9.17063886411516e+000dB,-3.53882467519361e+000°)
6.45654229034654e-002	(-8.77000403607317e+000dB,-3.62162754857255e+000°)
6.60693448007594e-002	(-8.36933943782692e+000dB,-3.70638590392417e+000°)
6.76082975391980e-002	(-7.96864368083883e+000dB,-3.79314720636749e+000°)
6.91830970918935e-002	(-7.56791531235401e+000dB,-3.88196016412169e+000°)
7.07945784384136e-002	(-7.16715281279001e+000dB,-3.97287476734658e+000°)
7.24435960074988e-002	(-6.76635459263160e+000dB,-4.06594232860233e+000°)
7.41310241300916e-002	(-6.36551898931817e+000dB,-4.16121552501509e+000°)
7.58577575029182e-002	(-5.96464426423457e+000dB,-4.25874844224641e+000°)
7.76247116628690e-002	(-5.56372859834350e+000dB,-4.35859662036721e+000°)
7.94328234724279e-002	(-5.16277008998788e+000dB,-4.46081710174304e+000°)
8.12830516164097e-002	(-4.76176675048932e+000dB,-4.56546848104876e+000°)
8.31763771102669e-002	(-4.36071650013599e+000dB,-4.67261095753591e+000°)
8.51138038202374e-002	(-3.95961716483985e+000dB,-4.78230638967919e+000°)
8.70963589956078e-002	(-3.55846647143739e+000dB,-4.89461835235206e+000°)
8.91250938133743e-002	(-3.15726204366269e+000dB,-5.00961219667197e+000°)
9.12010839355907e-002	(-2.75600139712409e+000dB,-5.12735511268065e+000°)
9.33254300796988e-002	(-2.35468193566669e+000dB,-5.24791619502953e+000°)
9.54992586021433e-002	(-1.95330094589628e+000dB,-5.37136651185488e+000°)
9.77237220955808e-002	(-1.55185559209474e+000dB,-5.49777917703313e+000°)
9.99999999999997e-002	(-1.15034291139998e+000dB,-5.62722942603211e+000°)
1.02329299228075e-001	(-7.48759808244343e-001dB,-5.75979469557759e+000°)
1.04712854805090e-001	(-3.47103048444331e-001dB,-5.89555470737544e+000°)
1.07151930523760e-001	(5.46307457690844e-002dB,-6.03459155614535e+000°)
1.09647819614318e-001	(4.56445102482577e-001dB,-6.17698980224141e+000°)
1.12201845430196e-001	(8.58343705377342e-001dB,-6.32283656914987e+000°)
1.14815362149688e-001	(1.26033040129076e+000dB,-6.47222164618161e+000°)
1.17489755493953e-001	(1.66240920553266e+000dB,-6.62523759669221e+000°)
1.20226443461741e-001	(2.06458430931528e+000dB,-6.78197987219303e+000°)
1.23026877081238e-001	(2.46686008650504e+000dB,-6.94254693273498e+000°)
1.25892541179416e-001	(2.86924110088457e+000dB,-7.10704037398375e+000°)
1.28824955169313e-001	(3.27173211285449e+000dB,-7.27556506142355e+000°)
1.31825673855640e-001	(3.67433808758254e+000dB,-7.44822927216994e+000°)
1.34896288259165e-001	(4.07706420262939e+000dB,-7.62514484489362e+000°)
1.38038426460288e-001	(4.47991585502683e+000dB,-7.80642733840952e+000°)
1.41253754462275e-001	(4.88289866971157e+000dB,-7.99219619950591e+000°)
1.44543977074592e-001	(5.28601850772343e+000dB,-8.18257494065237e+000°)
1.47910838816820e-001	(5.68928147372366e+000dB,-8.37769132824805e+000°)
1.51356124843620e-001	(6.09269392497265e+000dB,-8.57767758213860e+000°)
1.54881661891248e-001	(6.49626247840585e+000dB,-8.78267058717143e+000°)
1.58489319246111e-001	(6.89999402055438e+000dB,-8.99281211762624e+000°)
1.62181009735892e-001	(7.30389571369127e+000dB,-9.20824907539502e+000°)
1.65958690743755e-001	(7.70797500597141e+000dB,-9.42913374288964e+000°)
1.69824365246174e-001	(8.11223963752597e+000dB,-9.65562405167342e+000°)
1.73780082874937e-001	(8.51669765006869e+000dB,-9.88788386793756e+000°)
1.77827941003892e-001	(8.92135739230697e+000dB,-1.01260832959849e+001°)
1.81970085860998e-001	(9.32622752878747e+000dB,-1.03703990009867e+001°)
1.86208713666286e-001	(9.73131704590062e+000dB,-1.06210145523659e+001°)
1.90546071796324e-001	(1.01366352572007e+001dB,-1.08781207892509e+001°)
1.94984459975804e-001	(1.05421918096538e+001dB,-1.11419162095572e+001°)
1.99526231496887e-001	(1.09479966879384e+001dB,-1.14126073843478e+001°)
2.04173794466952e-001	(1.13540602174933e+001dB,-1.16904093992629e+001°)
2.08929613085403e-001	(1.17603930668744e+001dB,-1.19755463249041e+001°)
2.13796208950222e-001	(1.21670062482414e+001dB,-1.22682517182165e+001°)
2.18776162394954e-001	(1.25739111171492e+001dB,-1.25687691570259e+001°)
2.23872113856833e-001	(1.29811193689817e+001dB,-1.28773528100515e+001°)
2.29086765276776e-001	(1.33886430338793e+001dB,-1.31942680448552e+001°)
2.34422881531991e-001	(1.37964944691434e+001dB,-1.35197920763431e+001°)
2.39883291901948e-001	(1.42046863478851e+001dB,-1.38542146586170e+001°)
2.45470891568502e-001	(1.46132316453349e+001dB,-1.41978388231095e+001°)
2.51188643150957e-001	(1.50221436194536e+001dB,-1.45509816661454e+001°)
2.57039578276885e-001	(1.54314357884571e+001dB,-1.49139751892142e+001°)
2.63026799189537e-001	(1.58411219021088e+001dB,-1.52871671954267e+001°)
2.69153480392690e-001	(1.62512159075722e+001dB,-1.56709222457868e+001°)
2.75422870333815e-001	(1.66617319071515e+001dB,-1.60656226790892e+001°)
2.81838293126444e-001	(1.70726841103438e+001dB,-1.64716696993652e+001°)
2.88403150312659e-001	(1.74840867734210e+001dB,-1.68894845349705e+001°)
2.95120922666637e-001	(1.78959541329008e+001dB,-1.73195096734681e+001°)
3.01995172040200e-001	(1.83083003238237e+001dB,-1.77622101765456e+001°)
3.09029543251358e-001	(1.87211392867756e+001dB,-1.82180750792200e+001°)
3.16227766016837e-001	(1.91344846587350e+001dB,-1.86876188775009e+001°)
3.23593656929627e-001	(1.95483496479020e+001dB,-1.91713831085852e+001°)
3.31131121482590e-001	(1.99627468889742e+001dB,-1.96699380273840e+001°)
3.38844156139201e-001	(2.03776882748332e+001dB,-2.01838843827942e+001°)
3.46736850452530e-001	(2.07931847659664e+001dB,-2.07138552966126e+001°)
3.54813389233574e-001	(2.12092461697778e+001dB,-2.12605182471739e+001°)
3.63078054770100e-001	(2.16258808898704e+001dB,-2.18245771588046e+001°)
3.71535229097171e-001	(2.20430956378885e+001dB,-2.24067745968156e+001°)
3.80189396320559e-001	(2.24608951053882e+001dB,-2.30078940660085e+001°)
3.89045144994279e-001	(2.28792815912686e+001dB,-2.36287624084267e+001°)
3.98107170553495e-001	(2.32982545769345e+001dB,-2.42702522932693e+001°)
4.07380277804111e-001	(2.37178102433691e+001dB,-2.49332847883194e+001°)
4.16869383470333e-001	(2.41379409255639e+001dB,-2.56188319978765e+001°)
4.26579518801591e-001	(2.45586344915751e+001dB,-2.63279197466692e+001°)
4.36515832240164e-001	(2.49798736437707e+001dB,-2.70616302826579e+001°)
4.46683592150961e-001	(2.54016351277930e+001dB,-2.78211049633931e+001°)
4.57088189614873e-001	(2.58238888419566e+001dB,-2.86075468808027e+001°)
4.67735141287196e-001	(2.62465968354596e+001dB,-2.94222233673696e+001°)
4.78630092322636e-001	(2.66697121836601e+001dB,-3.02664683124255e+001°)
4.89778819368444e-001	(2.70931777296506e+001dB,-3.11416842003029e+001°)
5.01187233627270e-001	(2.75169246775432e+001dB,-3.20493437621353e+001°)
5.12861383991362e-001	(2.79408710272742e+001dB,-3.29909911095111e+001°)
5.24807460249770e-001	(2.83649198371645e+001dB,-3.39682421909751e+001°)
5.37031796370250e-001	(2.87889573038889e+001dB,-3.49827843809257e+001°)
5.49540873857622e-001	(2.92128506520457e+001dB,-3.60363749748154e+001°)
5.62341325190346e-001	(2.96364458229020e+001dB,-3.71308383246298e+001°)
5.75439937337154e-001	(3.00595649652304e+001dB,-3.82680613047639e+001°)
5.88843655355586e-001	(3.04820037254466e+001dB,-3.94499867513820e+001°)
6.02559586074355e-001	(3.09035283553049e+001dB,-4.06786044694242e+001°)
6.16595001861479e-001	(3.13238726536661e+001dB,-4.19559393528787e+001°)
6.30957344480190e-001	(3.17427347796964e+001dB,-4.32840361189873e+001°)
6.45654229034652e-001	(3.21597739890298e+001dB,-4.46649401201923e+001°)
6.60693448007592e-001	(3.25746073660683e+001dB,-4.61006736753004e+001°)
6.76082975391978e-001	(3.29868066506083e+001dB,-4.75932073614939e+001°)
6.91830970918933e-001	(3.33958952825382e+001dB,-4.91444257417070e+001°)
7.07945784384134e-001	(3.38013458267710e+001dB,-5.07560870798006e+001°)
7.24435960074986e-001	(3.42025779691070e+001dB,-5.24297767326679e+001°)
7.41310241300913e-001	(3.45989573142066e+001dB,-5.41668541185389e+001°)
7.58577575029179e-001	(3.49897952493499e+001dB,-5.59683934584947e+001°)
7.76247116628687e-001	(3.53743501626579e+001dB,-5.78351188840717e+001°)
7.94328234724277e-001	(3.57518303259705e+001dB,-5.97673350027953e+001°)
8.12830516164095e-001	(3.61213987461156e+001dB,-6.17648546092233e+001°)
8.31763771102666e-001	(3.64821802695989e+001dB,-6.38269259009268e+001°)
8.51138038202372e-001	(3.68332711586195e+001dB,-6.59521622660583e+001°)
8.70963589956076e-001	(3.71737512719826e+001dB,-6.81384783889446e+001°)
8.91250938133740e-001	(3.75026988443914e+001dB,-7.03830369869639e+001°)
9.12010839355904e-001	(3.78192076807578e+001dB,-7.26822108424777e+001°)
9.33254300796986e-001	(3.81224063835198e+001dB,-7.50315648172903e+001°)
9.54992586021430e-001	(3.84114790023870e+001dB,-7.74258621335268e+001°)
9.77237220955805e-001	(3.86856862869577e+001dB,-7.98590983058360e+001°)
9.99999999999994e-001	(3.89443865343270e+001dB,-8.23245647031458e+001°)
1.02329299228075e+000	(3.91870549127628e+001dB,-8.48149418671062e+001°)
1.04712854805089e+000	(3.94133001103192e+001dB,-8.73224205654957e+001°)
1.07151930523760e+000	(3.96228772421404e+001dB,-8.98388463339786e+001°)
1.09647819614318e+000	(3.98156961429666e+001dB,-9.23558812273354e+001°)
1.12201845430196e+000	(3.99918244610211e+001dB,-9.48651749333728e+001°)
1.14815362149688e+000	(4.01514853347537e+001dB,-9.73585365235769e+001°)
1.17489755493952e+000	(4.02950498159458e+001dB,-9.98280980538884e+001°)
1.20226443461741e+000	(4.04230245763909e+001dB,-1.02266461996719e+002°)
1.23026877081237e+000	(4.05360357302540e+001dB,-1.04666825966430e+002°)
1.25892541179416e+000	(4.06348098259160e+001dB,-1.07023080182572e+002°)
1.28824955169313e+000	(4.07201531432912e+001dB,-1.09329875329465e+002°)
1.31825673855640e+000	(4.07929304370229e+001dB,-1.11582660645665e+002°)
1.34896288259165e+000	(4.08540441421910e+001dB,-1.13777693981334e+002°)
1.38038426460288e+000	(4.09044149036121e+001dB,-1.15912027037741e+002°)
1.41253754462275e+000	(4.09449640597418e+001dB,-1.17983469975454e+002°)
1.44543977074592e+000	(4.09765985037521e+001dB,-1.19990540049281e+002°)
1.47910838816820e+000	(4.10001981269366e+001dB,-1.21932398959616e+002°)
1.51356124843620e+000	(4.10166058731664e+001dB,-1.23808783299529e+002°)
1.54881661891247e+000	(4.10266202949806e+001dB,-1.25619931934232e+002°)
1.58489319246110e+000	(4.10309903944088e+001dB,-1.27366513480351e+002°)
1.62181009735892e+000	(4.10304124783982e+001dB,-1.29049556344651e+002°)
1.65958690743755e+000	(4.10255287196104e+001dB,-1.30670383101951e+002°)
1.69824365246173e+000	(4.10169271186956e+001dB,-1.32230550383733e+002°)
1.73780082874936e+000	(4.10051425706243e+001dB,-1.33731794935366e+002°)
1.77827941003891e+000	(4.09906587679008e+001dB,-1.35175986089397e+002°)
1.81970085860997e+000	(4.09739107080011e+001dB,-1.36565084591117e+002°)
1.86208713666286e+000	(4.09552876036875e+001dB,-1.37901107490764e+002°)
1.90546071796323e+000	(4.09351360337081e+001dB,-1.39186098670383e+002°)
1.94984459975803e+000	(4.09137632050040e+001dB,-1.40422104487949e+002°)
1.99526231496887e+000	(4.08914402202398e+001dB,-1.41611153982894e+002°)
2.04173794466952e+000	(4.08684052807348e+001dB,-1.42755243082790e+002°)
2.08929613085403e+000	(4.08448667638953e+001dB,-1.43856322270875e+002°)
2.13796208950222e+000	(4.08210061429097e+001dB,-1.44916287209161e+002°)
2.18776162394954e+000	(4.07969807224367e+001dB,-1.45936971855924e+002°)
2.23872113856832e+000	(4.07729261772509e+001dB,-1.46920143664847e+002°)
2.29086765276776e+000	(4.07489588908746e+001dB,-1.47867500501815e+002°)
2.34422881531990e+000	(4.07251780958333e+001dB,-1.48780668963075e+002°)
2.39883291901947e+000	(4.07016678195887e+001dB,-1.49661203822587e+002°)
2.45470891568501e+000	(4.06784986476789e+001dB,-1.50510588377047e+002°)
2.51188643150956e+000	(4.06557293125232e+001dB,-1.51330235493298e+002°)
2.57039578276884e+000	(4.06334081225023e+001dB,-1.52121489194895e+002°)
2.63026799189536e+000	(4.06115742406244e+001dB,-1.52885626652340e+002°)
2.69153480392690e+000	(4.05902588276390e+001dB,-1.53623860465704e+002°)
2.75422870333815e+000	(4.05694860605936e+001dB,-1.54337341148540e+002°)
2.81838293126443e+000	(4.05492740391794e+001dB,-1.55027159739826e+002°)
2.88403150312658e+000	(4.05296355893259e+001dB,-1.55694350484767e+002°)
2.95120922666636e+000	(4.05105789757996e+001dB,-1.56339893537890e+002°)
3.01995172040199e+000	(4.04921085325895e+001dB,-1.56964717651792e+002°)
3.09029543251357e+000	(4.04742252201984e+001dB,-1.57569702823318e+002°)
3.16227766016835e+000	(4.04569271154374e+001dB,-1.58155682875851e+002°)
3.23593656929626e+000	(4.04402098449656e+001dB,-1.58723447961952e+002°)
3.31131121482589e+000	(4.04240669656743e+001dB,-1.59273746975099e+002°)
3.38844156139200e+000	(4.04084902974547e+001dB,-1.59807289863066e+002°)
3.46736850452529e+000	(4.03934702180251e+001dB,-1.60324749838205e+002°)
3.54813389233573e+000	(4.03789959174641e+001dB,-1.60826765482414e+002°)
3.63078054770098e+000	(4.03650556240660e+001dB,-1.61313942746238e+002°)
3.71535229097170e+000	(4.03516367992874e+001dB,-1.61786856843021e+002°)
3.80189396320558e+000	(4.03387263076671e+001dB,-1.62246054040057e+002°)
3.89045144994278e+000	(4.03263105652854e+001dB,-1.62692053349606e+002°)
3.98107170553494e+000	(4.03143756684184e+001dB,-1.63125348123010e+002°)
4.07380277804109e+000	(4.03029075038971e+001dB,-1.63546407551790e+002°)
4.16869383470332e+000	(4.02918918449595e+001dB,-1.63955678079656e+002°)
4.26579518801589e+000	(4.02813144337890e+001dB,-1.64353584729647e+002°)
4.36515832240162e+000	(4.02711610508596e+001dB,-1.64740532350666e+002°)
4.46683592150959e+000	(4.02614175754470e+001dB,-1.65116906787573e+002°)
4.57088189614871e+000	(4.02520700358442e+001dB,-1.65483075979136e+002°)
4.67735141287194e+000	(4.02431046519119e+001dB,-1.65839390987770e+002°)
4.78630092322634e+000	(4.02345078711334e+001dB,-1.66186186965254e+002°)
4.89778819368442e+000	(4.02262663964719e+001dB,-1.66523784057920e+002°)
5.01187233627268e+000	(4.02183672120878e+001dB,-1.66852488255324e+002°)
5.12861383991361e+000	(4.02107976005509e+001dB,-1.67172592185649e+002°)
